 ****** HSPICE -- D-2010.03-SP1 32-BIT (May 26 2010) winnt ******               
  Copyright (C) 2010 Synopsys, Inc. All Rights Reserved.                        
  Unpublished-rights reserved under US copyright laws.
  This program is protected by law and is subject to the 
  terms and conditions of the license agreement from Synopsys.
  Use of this program is your acceptance to be bound by the 
  license agreement. HSPICE is the trademark of Synopsys, Inc.
  Input File: d:\amin\university\term 4\electronics principles & lab\dr.fakhar z
  lic:  
  lic: FLEXlm: v8.5b 
  lic: USER:   Amin                 HOSTNAME: DESKTOP-1VFM22V 
  lic: HOSTID: "708bcd0821f7 484520c021d1 00ff9d66de49 484520c021cd 484520c021ce
 "
  lic: Using FLEXlm license file: 
  lic: 27000@elena 
  lic: Checkout 1 hspice 
  lic: License/Maintenance for hspice will expire on 31-dec-2020/2007.9 
  lic: NODE LOCKED license on hostid "708bcd0821f7 484520c021d1 00ff9d66de49 484
 5
  lic:   
 Init: read install configuration file: C:\synopsys\Hspice_D-2010.03-SP1\meta.cfg
1****** HSPICE -- D-2010.03-SP1 32-BIT (May 26 2010) winnt ******               
 ******  
 #exp1simulation

  ******  bjt   model parameters tnom=  25.000 temp=  25.000 *****

 ************************************************************************
 *** bjt model parameters   model name:   0:mynpn    model type:npn   ***
 ************************************************************************

     names  values   units     names  values   units     names  values   units
     -----  ------   -----     -----  ------   -----     -----  ------   -----

   1*** basic dc parameters ***
    level=   1.00                bf= 150.00                br=   1.00         
      brs=   0.                bulk=  gnd                  is=   1.00f amps   
      iss=   0.    amps          nf=   1.00                nr=   1.00         
       ns=   1.00               ibe=   0.    amps         ibc=   0.    amps   
     subs=   1.00             expli=   0.    amps   

   2*** low current beta degradation effect parameters ***
      isc=   0.    amps         ise=   0.    amps          nc=   2.00         
       ne=   1.50         

   3*** base width modulation parameters ***
      vaf= 100.00  volts        var=   0.    volts  

   4*** high current beta degradation effect parameters ***
      ikf=   0.    amps         nkf= 500.00m              ikr=   0.    amps   

   5*** parasitic resistor parameters ***
      irb=   0.    amps          rb=   0.    ohms         rbm=   0.    ohms   
       re=   0.    ohms          rc=   0.    ohms         rcc=   0.    ohms   
       vo=   0.    volts      gamma=   0.           

   6*** junction capacitor parameters ***
     cbcp=   0.    farad       cbep=   0.    farad       ccsp=   0.    farad  
      cjc=   0.    farad        cje=   0.    farad        cjs=   0.    farad  
       fc= 500.00m              mjc= 330.00m              mje= 330.00m        
      mjs= 500.00m              vjc= 750.00m volts        vje= 750.00m volts  
      vjs= 750.00m volts       xcjc=   1.00               qco=   0.    coul   

   7*** transit time parameters ***
      itf=   0.    amps         ptf=   0.    deg k         tf=   0.    secs   
       tr=   0.    secs         vtf=   0.                 xtf=   0.           

   8*** temperature compensation parameters ***
     tlev=   0.               tlevc=   0.                tre1=   0.    /deg   
     tre2=   0.    /deg2       trb1=   0.    /deg        trc1=   0.    /deg   
     trb2=   0.    /deg2       trm1=   0.    /deg         xtb=   0.           
     trm2=   0.    /deg2        xti=   3.00               cte=   0.    /deg   
      ctc=   0.    /deg         cts=   0.    /deg        trc2=   0.    /deg2  
     tref=  25.00   deg c       bex=   2.42              bexv=   1.90         

   9*** noise parameters ***
       kf=   0.                  af=   1.00         
  **info** (d:\amin\university\term 4\electronics principles & lab\dr.fakhar zade\lab\exp1\exp1simulation.sp:11) DC voltage reset to initial transient source value              in source        0:vin                 new dc=  0.0000D+00
 
 **warning** To avoid producing hard-to-solve matrix equations, connect gdcpath from node        0:4                defined in subckt 0               
      
 *****************************************************************
 ******  option summary
 ******
 runlvl  = 3         bypass  = 2         
1****** HSPICE -- D-2010.03-SP1 32-BIT (May 26 2010) winnt ******               
 ******  
 #exp1simulation

  ******  operating point information tnom=  25.000 temp=  25.000 *****
 ***** operating point status is all       simulation time is     0.     
    node    =voltage      node    =voltage      node    =voltage

 +0:1       =   1.3140  0:2       =   2.0191  0:3       =   6.6053 
 +0:4       =   0.      0:5       =   0.      0:6       =   0.     
 +0:7       =   0.      0:100     =  10.0000 


 ****  voltage sources

 subckt                                   
 element  0:vcc      0:vin      0:vtest   
  volts     10.0000     0.         0.     
  current -967.7569u    0.         0.     
  power      9.6776m    0.         0.     

     total voltage source power dissipation=    9.6776m       watts



 **** resistors

 subckt                                                                    
 element  0:r1       0:r2       0:rc       0:re       0:rs       0:r3      
  r value   82.0000k   22.0000k    3.9000k    1.5000k   50.0000   150.0000 
  v drop     7.9809     2.0191     3.3947     1.3140     0.         0.     
  current   97.3275u   91.7791u  870.4293u  875.9777u    0.         0.     
  power    776.7574u  185.3151u    2.9548m    1.1510m    0.         0.     


 **** bipolar junction transistors


 subckt             
 element  0:q1      
 model    0:mynpn   
  ib         5.5484u
  ic       870.4293u
  vbe      705.1746m
  vce        5.2914 
  vbc       -4.5862 
  vs        -6.6053 
  power      4.6097m
  betad    156.8793 
  gm        33.8713m
  rpi        4.6305k
  rx         0.     
  ro       120.1547k
  cpi        0.     
  cmu        0.     
  cbx        0.     
  ccs        0.     
  betaac   156.8407 
  ft       5.390e+12



 ******  
 #exp1simulation

  ******  ac analysis tnom=  25.000 temp=  25.000 *****
x

        freq       rout    
                           
    1.00000k    160.6480   
    1.05925k    160.6478   
    1.12202k    160.6477   
    1.18850k    160.6476   
    1.25893k    160.6475   
    1.33352k    160.6474   
    1.41254k    160.6474   
    1.49624k    160.6473   
    1.58489k    160.6472   
    1.67880k    160.6472   
    1.77828k    160.6471   
    1.88365k    160.6471   
    1.99526k    160.6471   
    2.11349k    160.6470   
    2.23872k    160.6470   
    2.37137k    160.6470   
    2.51189k    160.6469   
    2.66073k    160.6469   
    2.81838k    160.6469   
    2.98538k    160.6469   
    3.16228k    160.6469   
    3.34965k    160.6469   
    3.54813k    160.6468   
    3.75837k    160.6468   
    3.98107k    160.6468   
    4.21697k    160.6468   
    4.46684k    160.6468   
    4.73151k    160.6468   
    5.01187k    160.6468   
    5.30884k    160.6468   
    5.62341k    160.6468   
    5.95662k    160.6468   
    6.30957k    160.6468   
    6.68344k    160.6468   
    7.07946k    160.6468   
    7.49894k    160.6468   
    7.94328k    160.6468   
    8.41395k    160.6468   
    8.91251k    160.6468   
    9.44061k    160.6468   
   10.00000k    160.6468   
   10.59254k    160.6468   
   11.22018k    160.6468   
   11.88502k    160.6468   
   12.58925k    160.6468   
   13.33521k    160.6468   
   14.12538k    160.6468   
   14.96236k    160.6468   
   15.84893k    160.6468   
   16.78804k    160.6468   
   17.78279k    160.6468   
   18.83649k    160.6468   
   19.95262k    160.6468   
   21.13489k    160.6468   
   22.38721k    160.6467   
   23.71374k    160.6468   
   25.11886k    160.6468   
   26.60725k    160.6468   
   28.18383k    160.6468   
   29.85383k    160.6467   
   31.62278k    160.6468   
   33.49654k    160.6468   
   35.48134k    160.6468   
   37.58374k    160.6468   
   39.81072k    160.6468   
   42.16965k    160.6468   
   44.66836k    160.6468   
   47.31513k    160.6468   
   50.11872k    160.6468   
   53.08844k    160.6468   
   56.23413k    160.6468   
   59.56621k    160.6468   
   63.09573k    160.6468   
   66.83439k    160.6468   
   70.79458k    160.6468   
   74.98942k    160.6468   
   79.43282k    160.6468   
   84.13951k    160.6468   
   89.12509k    160.6468   
   94.40609k    160.6468   
  100.00000k    160.6467   
y

 **warning** invalid fft start time,
             reset to transient start time 0.40000E-02

1****** HSPICE -- D-2010.03-SP1 32-BIT (May 26 2010) winnt ******               
 ******  
 #exp1simulation

  ******  fft analysis tnom=  25.000 temp=  25.000 *****
 fft components of transient response v(3)

 Window: Rectangular     

 DC: ON
 First Harmonic:  166.6667       
 Start Freq:  166.6667       
 Stop  Freq:   85.3333k      

 dc component: mag(dB)=   0.000E+00  mag=   1.000E+00  phase=   0.000E+00

 frequency    frequency    fft_mag     fft_mag
    fft_phase
   index        (hz)        (dB)                    (deg)

     1       166.6667     -77.9723    126.2943u    -87.4384 
     2       333.3333     -83.9884     63.1800u    -88.5195 
     3       500.0000     -87.5144     42.0997u    -88.7906 
     4       666.6667     -90.0247     31.5331u    -88.8615 
     5       833.3333     -91.9979     25.1251u    -88.8545 
     6         1.0000k    -72.9777    224.4467u    604.5077m
     7         1.1667k    -94.7883     18.2215u    -88.6380 
     8         1.3333k    -95.9840     15.8782u    -88.5824 
     9         1.5000k    -97.0204     14.0922u    -88.4987 
    10         1.6667k    -97.9434     12.6716u    -88.4223 
    11         1.8333k    -98.7771     11.5119u    -88.3843 
    12         2.0000k    -94.0654     19.8029u    -83.6913 
    13         2.1667k   -100.2485      9.7180u    -87.7568 
    14         2.3333k   -100.8940      9.0219u    -87.6943 
    15         2.5000k   -101.4975      8.4164u    -87.5940 
    16         2.6667k   -102.0624      7.8864u    -87.4595 
    17         2.8333k   -102.5887      7.4227u    -87.3194 
    18         3.0000k   -104.3266      6.0767u    -80.9444 
    19         3.1667k   -103.5871      6.6167u    -87.0236 
    20         3.3333k   -104.0335      6.2853u    -86.8588 
    21         3.5000k   -104.4615      5.9831u    -86.6936 
    22         3.6667k   -104.8700      5.7082u    -86.5071 
    23         3.8333k   -105.2613      5.4568u    -86.3382 
    24         4.0000k   -106.9758      4.4793u    -82.6533 
    25         4.1667k   -106.0011      5.0112u    -86.0408 
    26         4.3333k   -106.3465      4.8159u    -85.8266 
    27         4.5000k   -106.6807      4.6341u    -85.6552 
    28         4.6667k   -107.0027      4.4655u    -85.4620 
    29         4.8333k   -107.3140      4.3082u    -85.2628 
    30         5.0000k   -104.6843      5.8315u    -58.2805 
    31         5.1667k   -107.8998      4.0272u    -84.8990 
    32         5.3333k   -108.1824      3.8983u    -84.6957 
    33         5.5000k   -108.4545      3.7781u    -84.4842 
    34         5.6667k   -108.7207      3.6641u    -84.2519 
    35         5.8333k   -108.9748      3.5584u    -84.0558 
    36         6.0000k   -109.9737      3.1719u    -83.2570 
    37         6.1667k   -109.4665      3.3626u    -83.6684 
    38         6.3333k   -109.7021      3.2726u    -83.4069 
    39         6.5000k   -109.9309      3.1875u    -83.2206 
    40         6.6667k   -110.1543      3.1066u    -83.0035 
    41         6.8333k   -110.3741      3.0290u    -82.7644 
    42         7.0000k   -106.0707      4.9712u    -49.1646 
    43         7.1667k   -110.7790      2.8910u    -82.3540 
    44         7.3333k   -110.9831      2.8239u    -82.1223 
    45         7.5000k   -111.1795      2.7607u    -81.8933 
    46         7.6667k   -111.3775      2.6985u    -81.6272 
    47         7.8333k   -111.5587      2.6428u    -81.4456 
    48         8.0000k   -111.1298      2.7766u    -83.9684 
    49         8.1667k   -111.9151      2.5366u    -80.9558 
    50         8.3333k   -112.0882      2.4865u    -80.6853 
    51         8.5000k   -112.2593      2.4380u    -80.5088 
    52         8.6667k   -112.4245      2.3921u    -80.2825 
    53         8.8333k   -112.5875      2.3476u    -80.0546 
    54         9.0000k   -111.7589      2.5826u    -72.8471 
    55         9.1667k   -112.9004      2.2645u    -79.6010 
    56         9.3333k   -113.0509      2.2256u    -79.3777 
    57         9.5000k   -113.2009      2.1875u    -79.1530 
    58         9.6667k   -113.3491      2.1505u    -78.8806 
    59         9.8333k   -113.4894      2.1161u    -78.7121 
    60        10.0000k   -113.4591      2.1235u    -80.9158 
    61        10.1667k   -113.7627      2.0505u    -78.2682 
    62        10.3333k   -113.9018      2.0180u    -78.0530 
    63        10.5000k   -114.0287      1.9887u    -77.8442 
    64        10.6667k   -114.1560      1.9598u    -77.6334 
    65        10.8333k   -114.2838      1.9311u    -77.4348 
    66        11.0000k   -115.1760      1.7426u    -83.0812 
    67        11.1667k   -114.5302      1.8771u    -76.9954 
    68        11.3333k   -114.6473      1.8520u    -76.7917 
    69        11.5000k   -114.7667      1.8267u    -76.6059 
    70        11.6667k   -114.8839      1.8022u    -76.3874 
    71        11.8333k   -114.9944      1.7794u    -76.2211 
    72        12.0000k   -115.0048      1.7773u    -72.6593 
    73        12.1667k   -115.2199      1.7338u    -75.8400 
    74        12.3333k   -115.3291      1.7122u    -75.7276 
    75        12.5000k   -115.4334      1.6917u    -75.4751 
    76        12.6667k   -115.5361      1.6718u    -75.2822 
    77        12.8333k   -115.6414      1.6517u    -75.1188 
    78        13.0000k   -114.7069      1.8393u    -81.2618 
    79        13.1667k   -115.8448      1.6135u    -74.7831 
    80        13.3333k   -115.9440      1.5951u    -74.6039 
    81        13.5000k   -116.0420      1.5772u    -74.4489 
    82        13.6667k   -116.1305      1.5613u    -74.3690 
    83        13.8333k   -116.2344      1.5427u    -74.1305 
    84        14.0000k   -116.0486      1.5760u    -72.8526 
    85        14.1667k   -116.4238      1.5094u    -73.8038 
    86        14.3333k   -116.5159      1.4935u    -73.7161 
    87        14.5000k   -116.6076      1.4778u    -73.5035 
    88        14.6667k   -116.6992      1.4623u    -73.3429 
    89        14.8333k   -116.7872      1.4476u    -73.2075 
    90        15.0000k   -116.9778      1.4161u    -86.1140 
    91        15.1667k   -116.9679      1.4178u    -72.9196 
    92        15.3333k   -117.0564      1.4034u    -72.7602 
    93        15.5000k   -117.1413      1.3898u    -72.6343 
    94        15.6667k   -117.2144      1.3781u    -72.5967 
    95        15.8333k   -117.3125      1.3626u    -72.3528 
    96        16.0000k   -117.5378      1.3277u    -71.5877 
    97        16.1667k   -117.4823      1.3362u    -72.0829 
    98        16.3333k   -117.5600      1.3243u    -71.9139 
    99        16.5000k   -117.6488      1.3109u    -71.8069 
   100        16.6667k   -117.7363      1.2977u    -71.6538 
   101        16.8333k   -117.8131      1.2863u    -71.5336 
   102        17.0000k   -118.2616      1.2216u    -75.1724 
   103        17.1667k   -117.9764      1.2624u    -71.2613 
   104        17.3333k   -118.0571      1.2507u    -71.1262 
   105        17.5000k   -118.1367      1.2393u    -70.9862 
   106        17.6667k   -118.2035      1.2298u    -70.7780 
   107        17.8333k   -118.2950      1.2169u    -70.7082 
   108        18.0000k   -118.4784      1.1915u    -69.8646 
   109        18.1667k   -118.4527      1.1950u    -70.4333 
   110        18.3333k   -118.5236      1.1853u    -70.2547 
   111        18.5000k   -118.6075      1.1739u    -70.1468 
   112        18.6667k   -118.6832      1.1637u    -70.0062 
   113        18.8333k   -118.7608      1.1533u    -69.8532 
   114        19.0000k   -118.2479      1.2235u    -65.8486 
   115        19.1667k   -118.9113      1.1335u    -69.5695 
   116        19.3333k   -118.9882      1.1235u    -69.4318 
   117        19.5000k   -119.0610      1.1142u    -69.2639 
   118        19.6667k   -119.1347      1.1048u    -69.0745 
   119        19.8333k   -119.2088      1.0954u    -68.9528 
   120        20.0000k   -119.3897      1.0728u    -69.7320 
   121        20.1667k   -119.3533      1.0773u    -68.6417 
   122        20.3333k   -119.4225      1.0688u    -68.3806 
   123        20.5000k   -119.4971      1.0596u    -68.3162 
   124        20.6667k   -119.5684      1.0509u    -68.1743 
   125        20.8333k   -119.6392      1.0424u    -67.9836 
   126        21.0000k   -119.3875      1.0731u    -55.8131 
   127        21.1667k   -119.7752      1.0262u    -67.6456 
   128        21.3333k   -119.8452      1.0180u    -67.4739 
   129        21.5000k   -119.9127      1.0101u    -67.2992 
   130        21.6667k   -119.9963      1.0004u    -66.9959 
   131        21.8333k   -120.0472    994.5783n    -66.9478 
   132        22.0000k   -119.8995      1.0116u    -67.5497 
   133        22.1667k   -120.1780    979.7198n    -66.5760 
   134        22.3333k   -120.2352    973.2812n    -66.2376 
   135        22.5000k   -120.3072    965.2542n    -66.2118 
   136        22.6667k   -120.3699    958.3108n    -66.0199 
   137        22.8333k   -120.4336    951.3011n    -65.8396 
   138        23.0000k   -120.1676    980.8849n    -61.5230 
   139        23.1667k   -120.5570    937.8842n    -65.4582 
   140        23.3333k   -120.6133    931.8288n    -65.2692 
   141        23.5000k   -120.6780    924.9120n    -65.0759 
   142        23.6667k   -120.7391    918.4269n    -64.6194 
   143        23.8333k   -120.7961    912.4166n    -64.6903 
   144        24.0000k   -120.7946    912.5757n    -64.6733 
   145        24.1667k   -120.9113    900.3952n    -64.2975 
   146        24.3333k   -120.9696    894.3709n    -64.0973 
   147        24.5000k   -121.0240    888.7913n    -63.9076 
   148        24.6667k   -121.0716    883.9391n    -63.7042 
   149        24.8333k   -121.1338    877.6222n    -63.5169 
   150        25.0000k   -120.8178    910.1389n    -63.3280 
   151        25.1667k   -121.2414    866.8225n    -63.1200 
   152        25.3333k   -121.2914    861.8470n    -62.9154 
   153        25.5000k   -121.3459    856.4564n    -62.7303 
   154        25.6667k   -121.3981    851.3246n    -62.4778 
   155        25.8333k   -121.4477    846.4810n    -62.3411 
   156        26.0000k   -121.4942    841.9570n    -60.9700 
   157        26.1667k   -121.5487    836.6895n    -61.9545 
   158        26.3333k   -121.6002    831.7478n    -61.8303 
   159        26.5000k   -121.6458    827.3891n    -61.5703 
   160        26.6667k   -121.6921    822.9902n    -61.3619 
   161        26.8333k   -121.7411    818.3592n    -61.1890 
   162        27.0000k   -121.1127    879.7595n    -60.2838 
   163        27.1667k   -121.8340    809.6510n    -60.8183 
   164        27.3333k   -121.8806    805.3190n    -60.5965 
   165        27.5000k   -121.9255    801.1712n    -60.4468 
   166        27.6667k   -121.9576    798.2106n    -60.3185 
   167        27.8333k   -122.0149    792.9625n    -60.0833 
   168        28.0000k   -121.9312    800.6416n    -59.3193 
   169        28.1667k   -122.1036    784.9141n    -59.7164 
