 ****** HSPICE -- D-2010.03-SP1 32-BIT (May 26 2010) winnt ******               
  Copyright (C) 2010 Synopsys, Inc. All Rights Reserved.                        
  Unpublished-rights reserved under US copyright laws.
  This program is protected by law and is subject to the 
  terms and conditions of the license agreement from Synopsys.
  Use of this program is your acceptance to be bound by the 
  license agreement. HSPICE is the trademark of Synopsys, Inc.
  Input File: d:\amin\university\term 4\electronics principles & lab\dr.fakhar z
  lic:  
  lic: FLEXlm: v8.5b 
  lic: USER:   Amin                 HOSTNAME: DESKTOP-1VFM22V 
  lic: HOSTID: "708bcd0821f7 484520c021d1 00ff9d66de49 484520c021cd 484520c021ce
 "
  lic: Using FLEXlm license file: 
  lic: 27000@elena 
  lic: Checkout 1 hspice 
  lic: License/Maintenance for hspice will expire on 31-dec-2020/2007.9 
  lic: NODE LOCKED license on hostid "708bcd0821f7 484520c021d1 00ff9d66de49 484
 5
  lic:   
 Init: read install configuration file: C:\synopsys\Hspice_D-2010.03-SP1\meta.cfg

 **warning** It is recommended that you set start explicitly:
             .TRAN tstep tstop START=val


1****** HSPICE -- D-2010.03-SP1 32-BIT (May 26 2010) winnt ******               
 ******  
 ************6-2

  ******  bjt   model parameters tnom=  25.000 temp=  25.000 *****

 ************************************************************************
 *** bjt model parameters   model name:   0:mynpn    model type:npn   ***
 ************************************************************************

     names  values   units     names  values   units     names  values   units
     -----  ------   -----     -----  ------   -----     -----  ------   -----

   1*** basic dc parameters ***
    level=   1.00                bf=  50.00                br=   1.00         
      brs=   0.                bulk=  gnd                  is=   1.00f amps   
      iss=   0.    amps          nf=   1.00                nr=   1.00         
       ns=   1.00               ibe=   0.    amps         ibc=   0.    amps   
     subs=   1.00             expli=   0.    amps   

   2*** low current beta degradation effect parameters ***
      isc=   0.    amps         ise=   0.    amps          nc=   2.00         
       ne=   1.50         

   3*** base width modulation parameters ***
      vaf= 100.00  volts        var=   0.    volts  

   4*** high current beta degradation effect parameters ***
      ikf=   0.    amps         nkf= 500.00m              ikr=   0.    amps   

   5*** parasitic resistor parameters ***
      irb=   0.    amps          rb=   0.    ohms         rbm=   0.    ohms   
       re=   0.    ohms          rc=   0.    ohms         rcc=   0.    ohms   
       vo=   0.    volts      gamma=   0.           

   6*** junction capacitor parameters ***
     cbcp=   0.    farad       cbep=   0.    farad       ccsp=   0.    farad  
      cjc=   0.    farad        cje=   0.    farad        cjs=   0.    farad  
       fc= 500.00m              mjc= 330.00m              mje= 330.00m        
      mjs= 500.00m              vjc= 750.00m volts        vje= 750.00m volts  
      vjs= 750.00m volts       xcjc=   1.00               qco=   0.    coul   

   7*** transit time parameters ***
      itf=   0.    amps         ptf=   0.    deg k         tf=   0.    secs   
       tr=   0.    secs         vtf=   0.                 xtf=   0.           

   8*** temperature compensation parameters ***
     tlev=   0.               tlevc=   0.                tre1=   0.    /deg   
     tre2=   0.    /deg2       trb1=   0.    /deg        trc1=   0.    /deg   
     trb2=   0.    /deg2       trm1=   0.    /deg         xtb=   0.           
     trm2=   0.    /deg2        xti=   3.00               cte=   0.    /deg   
      ctc=   0.    /deg         cts=   0.    /deg        trc2=   0.    /deg2  
     tref=  25.00   deg c       bex=   2.42              bexv=   1.90         

   9*** noise parameters ***
       kf=   0.                  af=   1.00         
  **info** (d:\amin\university\term 4\electronics principles & lab\dr.fakhar zade\lab\exp6\6-2.sp:4) DC voltage reset to initial transient source value              in source        0:vin                 new dc=  0.0000D+00
 
      
 *****************************************************************
 ******  option summary
 ******
 runlvl  = 3         bypass  = 2         
1****** HSPICE -- D-2010.03-SP1 32-BIT (May 26 2010) winnt ******               
 ******  
 ************6-2

  ******  operating point information tnom=  25.000 temp=  25.000 *****
 ***** operating point status is all       simulation time is     0.     
    node    =voltage      node    =voltage      node    =voltage

 +0:1       =   0.      0:2       =   6.6539  0:3       =   5.8500 
 +0:4       =   0.      0:100     =  12.0000 


 ****  voltage sources

 subckt                        
 element  0:vcc      0:vin     
  volts     12.0000     0.     
  current  -91.4416m    0.     
  power      1.0973     0.     

     total voltage source power dissipation=    1.0973        watts



 **** resistors

 subckt                                              
 element  0:r1       0:r2       0:r3       0:rl      
  r value  106.0000   134.0000   140.0000   100.0000 
  v drop     5.3461     6.6539     5.8500     0.     
  current   50.4347m   49.6562m   41.7854m    0.     
  power    269.6276m  330.4083m  244.4429m    0.     


 **** bipolar junction transistors


 subckt             
 element  0:q1      
 model    0:mynpn   
  ib       778.5178u
  ic        41.0069m
  vbe      803.9667m
  vce        6.1500 
  vbc       -5.3461 
  vs       -12.0000 
  power    252.8200m
  betad     52.6730 
  gm         1.5957 
  rpi       33.0010 
  rx         0.     
  ro         2.5690k
  cpi        0.     
  cmu        0.     
  cbx        0.     
  ccs        0.     
  betaac    52.6602 
  ft       2.539e+14



 ******  
 ************6-2

  ******  transient analysis tnom=  25.000 temp=  25.000 *****
  **warning** (d:\amin\university\term 4\electronics principles & lab\dr.fakhar zade\lab\exp6\6-2.sp:24) Measure results may be incorrect since initial start time is non-zero.
   pl=  5.7789E-02  from=  1.0000E-03     to=  9.0000E-03
   ptot=  1.2712E+00  from=  1.0000E-03     to=  9.0000E-03
   vo=  2.4039E+00  from=  1.0000E-03     to=  9.0000E-03
   vin=  2.8445E+00  from=  1.0000E-03     to=  9.0000E-03
   ic1=  4.8734E-02  from=  1.0000E-03     to=  9.0000E-03
 fourier components of transient response v(4)
 dc component = 0.122165
 
 harmonic frequency fourier   normalized phase     normalized  
 no       (hz)      component component  (deg)     phase (deg) 
 1        1.00000k  3.34169   1.00000    1.97574   0.          
 2        2.00000k  445.303m  133.257m   -83.4048  -85.3805    
 3        3.00000k  235.066m  70.3434m   6.58355   4.60781     
 4        4.00000k  76.5606m  22.9108m   88.1353   86.1595     
 5        5.00000k  24.8995m  7.45118m   65.5337   63.5579     
 6        6.00000k  36.0807m  10.7971m   114.749   112.773     
 7        7.00000k  17.7480m  5.31110m   166.866   164.891     
 8        8.00000k  12.8972m  3.85949m   -165.396  -167.372    
 9        9.00000k  11.7742m  3.52343m   -102.945  -104.921    
 
 total harmonic distortion =   15.316  percent

          ***** job concluded
1****** HSPICE -- D-2010.03-SP1 32-BIT (May 26 2010) winnt ******               
 ******  
 ************6-2

  ******  job statistics summary tnom=  25.000 temp=  25.000 *****

  ******  HSPICE Threads Information  ******

  Command Line Threads Count                  :     1
  Available CPU Count                         :     8
  Actual Model Evaluation(Load) Threads Count :     1
  Actual Solver Threads Count                 :     1


  ******  Circuit Statistics  ******
  # nodes       =       6 # elements   =       9
  # resistors   =       4 # capacitors =       2 # inductors   =       0
  # mutual_inds =       0 # vccs       =       0 # vcvs        =       0
  # cccs        =       0 # ccvs       =       0 # volt_srcs   =       2
  # curr_srcs   =       0 # diodes     =       0 # bjts        =       1
  # jfets       =       0 # mosfets    =       0 # U elements  =       0
  # T elements  =       0 # W elements =       0 # B elements  =       0
  # S elements  =       0 # P elements =       0 # va device   =       0


  ******  Runtime Statistics (seconds)  ******

  analysis           time    # points   tot. iter  conv.iter
  op point           0.00           1           6
  transient          0.02         901         626         243 rev=         0
  readin             0.05
  errchk             0.02
  setup              0.02
  output             0.00


           total memory used          165  kbytes
           total cpu time            0.12 seconds
           total elapsed time        0.36 seconds
           job started at     15:07:24 12/15/2016
           job ended   at     15:07:24 12/15/2016


  lic: Release hspice token(s) 
