 ****** HSPICE -- D-2010.03-SP1 32-BIT (May 26 2010) winnt ******               
  Copyright (C) 2010 Synopsys, Inc. All Rights Reserved.                        
  Unpublished-rights reserved under US copyright laws.
  This program is protected by law and is subject to the 
  terms and conditions of the license agreement from Synopsys.
  Use of this program is your acceptance to be bound by the 
  license agreement. HSPICE is the trademark of Synopsys, Inc.
  Input File: d:\university\term 4\electronics principles & lab\dr.fakhar zade\l
  lic:  
  lic: FLEXlm: v8.5b 
  lic: USER:   Amin                 HOSTNAME: DESKTOP-1VFM22V 
  lic: HOSTID: "708bcd0821f7 484520c021cd 484520c021ce" PID:      9044 
  lic: Using FLEXlm license file: 
  lic: 27000@elena 
  lic: Checkout 1 hspice 
  lic: License/Maintenance for hspice will expire on 31-dec-2020/2007.9 
  lic: NODE LOCKED license on hostid "708bcd0821f7 484520c021cd 484520c021ce" 
  lic:   
 Init: read install configuration file: C:\synopsys\Hspice_D-2010.03-SP1\meta.cfg

 **warning** It is recommended that you set start explicitly:
             .TRAN tstep tstop START=val


1****** HSPICE -- D-2010.03-SP1 32-BIT (May 26 2010) winnt ******               
 ******  
 ************6-3

  ******  bjt   model parameters tnom=  25.000 temp=  25.000 *****

 ************************************************************************
 *** bjt model parameters   model name:   0:mynpn    model type:npn   ***
 ************************************************************************

     names  values   units     names  values   units     names  values   units
     -----  ------   -----     -----  ------   -----     -----  ------   -----

   1*** basic dc parameters ***
    level=   1.00                bf=  50.00                br=   1.00         
      brs=   0.                bulk=  gnd                  is=   1.00f amps   
      iss=   0.    amps          nf=   1.00                nr=   1.00         
       ns=   1.00               ibe=   0.    amps         ibc=   0.    amps   
     subs=   1.00             expli=   0.    amps   

   2*** low current beta degradation effect parameters ***
      isc=   0.    amps         ise=   0.    amps          nc=   2.00         
       ne=   1.50         

   3*** base width modulation parameters ***
      vaf= 100.00  volts        var=   0.    volts  

   4*** high current beta degradation effect parameters ***
      ikf=   0.    amps         nkf= 500.00m              ikr=   0.    amps   

   5*** parasitic resistor parameters ***
      irb=   0.    amps          rb=   0.    ohms         rbm=   0.    ohms   
       re=   0.    ohms          rc=   0.    ohms         rcc=   0.    ohms   
       vo=   0.    volts      gamma=   0.           

   6*** junction capacitor parameters ***
     cbcp=   0.    farad       cbep=   0.    farad       ccsp=   0.    farad  
      cjc=   0.    farad        cje=   0.    farad        cjs=   0.    farad  
       fc= 500.00m              mjc= 330.00m              mje= 330.00m        
      mjs= 500.00m              vjc= 750.00m volts        vje= 750.00m volts  
      vjs= 750.00m volts       xcjc=   1.00               qco=   0.    coul   

   7*** transit time parameters ***
      itf=   0.    amps         ptf=   0.    deg k         tf=   0.    secs   
       tr=   0.    secs         vtf=   0.                 xtf=   0.           

   8*** temperature compensation parameters ***
     tlev=   0.               tlevc=   0.                tre1=   0.    /deg   
     tre2=   0.    /deg2       trb1=   0.    /deg        trc1=   0.    /deg   
     trb2=   0.    /deg2       trm1=   0.    /deg         xtb=   0.           
     trm2=   0.    /deg2        xti=   3.00               cte=   0.    /deg   
      ctc=   0.    /deg         cts=   0.    /deg        trc2=   0.    /deg2  
     tref=  25.00   deg c       bex=   2.42              bexv=   1.90         

   9*** noise parameters ***
       kf=   0.                  af=   1.00         

 ************************************************************************
 *** bjt model parameters   model name:   0:mypnp    model type:pnp   ***
 ************************************************************************

     names  values   units     names  values   units     names  values   units
     -----  ------   -----     -----  ------   -----     -----  ------   -----

   1*** basic dc parameters ***
    level=   1.00                bf=  50.00                br=   1.00         
      brs=   0.                bulk=  gnd                  is=   1.00f amps   
      iss=   0.    amps          nf=   1.00                nr=   1.00         
       ns=   1.00               ibe=   0.    amps         ibc=   0.    amps   
     subs=  -1.00             expli=   0.    amps   

   2*** low current beta degradation effect parameters ***
      isc=   0.    amps         ise=   0.    amps          nc=   2.00         
       ne=   1.50         

   3*** base width modulation parameters ***
      vaf= 100.00  volts        var=   0.    volts  

   4*** high current beta degradation effect parameters ***
      ikf=   0.    amps         nkf= 500.00m              ikr=   0.    amps   

   5*** parasitic resistor parameters ***
      irb=   0.    amps          rb=   0.    ohms         rbm=   0.    ohms   
       re=   0.    ohms          rc=   0.    ohms         rcc=   0.    ohms   
       vo=   0.    volts      gamma=   0.           

   6*** junction capacitor parameters ***
     cbcp=   0.    farad       cbep=   0.    farad       ccsp=   0.    farad  
      cjc=   0.    farad        cje=   0.    farad        cjs=   0.    farad  
       fc= 500.00m              mjc= 330.00m              mje= 330.00m        
      mjs= 500.00m              vjc= 750.00m volts        vje= 750.00m volts  
      vjs= 750.00m volts       xcjc=   1.00               qco=   0.    coul   

   7*** transit time parameters ***
      itf=   0.    amps         ptf=   0.    deg k         tf=   0.    secs   
       tr=   0.    secs         vtf=   0.                 xtf=   0.           

   8*** temperature compensation parameters ***
     tlev=   0.               tlevc=   0.                tre1=   0.    /deg   
     tre2=   0.    /deg2       trb1=   0.    /deg        trc1=   0.    /deg   
     trb2=   0.    /deg2       trm1=   0.    /deg         xtb=   0.           
     trm2=   0.    /deg2        xti=   3.00               cte=   0.    /deg   
      ctc=   0.    /deg         cts=   0.    /deg        trc2=   0.    /deg2  
     tref=  25.00   deg c       bex=   2.42              bexv=   1.90         

   9*** noise parameters ***
       kf=   0.                  af=   1.00         
  **info** (d:\university\term 4\electronics principles & lab\dr.fakhar zade\lab\exp6\6-3.sp:4) DC voltage reset to initial transient source value              in source        0:vin                 new dc=  0.0000D+00
 
      
 *****************************************************************
 ******  option summary
 ******
 runlvl  = 3         bypass  = 2         
1****** HSPICE -- D-2010.03-SP1 32-BIT (May 26 2010) winnt ******               
 ******  
 ************6-3

  ******  operating point information tnom=  25.000 temp=  25.000 *****
 ***** operating point status is all       simulation time is     0.     
    node    =voltage      node    =voltage      node    =voltage

 +0:1       =   0.      0:2       =   6.0000  0:3       =   6.0000 
 +0:4       =   0.      0:100     =  12.0000 


 ****  voltage sources

 subckt                        
 element  0:vcc      0:vin     
  volts     12.0000     0.     
  current   -6.0000m    0.     
  power     72.0000m    0.     

     total voltage source power dissipation=   72.0000m       watts



 **** resistors

 subckt                                   
 element  0:r2       0:r1       0:rl      
  r value    1.0000k    1.0000k  100.0000 
  v drop     6.0000     6.0000     0.     
  current    6.0000m    6.0000m    0.     
  power     36.0000m   36.0000m    0.     


 **** bipolar junction transistors


 subckt                        
 element  0:q1       0:q2      
 model    0:mynpn    0:mypnp   
  ib        -1.0000f    1.0000f
  ic         2.0600f   -2.0600f
  vbe        0.         0.     
  vce        6.0000    -6.0000 
  vbc       -6.0000     6.0000 
  vs       -12.0000    -6.0000 
  power     12.3600f   12.3600f
  betad     -2.0600    -2.0600 
  gm        41.0716f   41.0716f
  rpi      1.284e+15  1.284e+15
  rx         0.         0.     
  ro       5.357e+15  5.357e+15
  cpi        0.         0.     
  cmu        0.         0.     
  cbx        0.         0.     
  ccs        0.         0.     
  betaac    52.7602    52.7602 
  ft         6.5102     6.5102 



 ******  
 ************6-3

  ******  transient analysis tnom=  25.000 temp=  25.000 *****
   pl=  1.5614E-01  from=  1.0000E-03     to=  9.0000E-03
   ptot=  3.1987E-01  from=  1.0000E-03     to=  9.0000E-03

a


      time       i(q1)
 (a       )       0.           20.0000m      40.0000m      60.0000m     80.0000m
                      +             +             +             +             + 
    0.         6.002p-a------+------+------+------+------+------+------+------+-
   10.0000u  828.041n a      +      +      +      +      +      +      +      + 
   20.0000u    1.142m +a     +      +      +      +      +      +      +      + 
   30.0000u    4.798m +  a   +      +      +      +      +      +      +      + 
   40.0000u    8.589m +     a+      +      +      +      +      +      +      + 
   50.0000u   12.363m +      + a    +      +      +      +      +      +      + 
   60.0000u   16.091m +      +   a  +      +      +      +      +      +      + 
   70.0000u   19.679m +      +      a      +      +      +      +      +      + 
   80.0000u   22.970m +      +      + a    +      +      +      +      +      + 
   90.0000u   26.261m +      +      +   a  +      +      +      +      +      + 
  100.0000u   29.553m-+------+------+------a------+------+------+------+------+-
  110.0000u   32.844m +      +      +      + a    +      +      +      +      + 
  120.0000u   36.136m +      +      +      +   a  +      +      +      +      + 
  130.0000u   38.835m +      +      +      +     a+      +      +      +      + 
  140.0000u   41.438m +      +      +      +      +a     +      +      +      + 
  150.0000u   44.040m +      +      +      +      +  a   +      +      +      + 
  160.0000u   45.850m +      +      +      +      +   a  +      +      +      + 
  170.0000u   47.660m +      +      +      +      +    a +      +      +      + 
  180.0000u   49.471m +      +      +      +      +      a      +      +      + 
  190.0000u   51.281m +      +      +      +      +      +a     +      +      + 
  200.0000u   52.770m-+------+------+------+------+------+-a----+------+------+-
  210.0000u   53.826m +      +      +      +      +      +  a   +      +      + 
  220.0000u   54.516m +      +      +      +      +      +  a   +      +      + 
  230.0000u   54.893m +      +      +      +      +      +  a   +      +      + 
  240.0000u   55.271m +      +      +      +      +      +   a  +      +      + 
  250.0000u   55.648m +      +      +      +      +      +   a  +      +      + 
  260.0000u   54.955m +      +      +      +      +      +  a   +      +      + 
  270.0000u   54.261m +      +      +      +      +      +  a   +      +      + 
  280.0000u   53.568m +      +      +      +      +      + a    +      +      + 
  290.0000u   52.874m +      +      +      +      +      + a    +      +      + 
  300.0000u   52.181m-+------+------+------+------+------+-a----+------+------+-
  310.0000u   50.663m +      +      +      +      +      a      +      +      + 
  320.0000u   48.990m +      +      +      +      +     a+      +      +      + 
  330.0000u   46.910m +      +      +      +      +    a +      +      +      + 
  340.0000u   44.830m +      +      +      +      +  a   +      +      +      + 
  350.0000u   42.750m +      +      +      +      + a    +      +      +      + 
  360.0000u   39.854m +      +      +      +      a      +      +      +      + 
  370.0000u   36.958m +      +      +      +    a +      +      +      +      + 
  380.0000u   34.062m +      +      +      +  a   +      +      +      +      + 
  390.0000u   31.166m +      +      +      +a     +      +      +      +      + 
  400.0000u   28.270m-+------+------+-----a+------+------+------+------+------+-
  410.0000u   24.953m +      +      +  a   +      +      +      +      +      + 
  420.0000u   21.500m +      +      +a     +      +      +      +      +      + 
  430.0000u   17.891m +      +     a+      +      +      +      +      +      + 
  440.0000u   14.210m +      +  a   +      +      +      +      +      +      + 
  450.0000u   10.432m +      a      +      +      +      +      +      +      + 
  460.0000u    6.654m +    a +      +      +      +      +      +      +      + 
  470.0000u    2.906m + a    +      +      +      +      +      +      +      + 
  480.0000u    1.664m +a     +      +      +      +      +      +      +      + 
  490.0000u  832.082u +a     +      +      +      +      +      +      +      + 
  500.0000u    6.045p-a------+------+------+------+------+------+------+------+-
  510.0000u    6.459p a      +      +      +      +      +      +      +      + 
  520.0000u    6.867p a      +      +      +      +      +      +      +      + 
  530.0000u    7.271p a      +      +      +      +      +      +      +      + 
  540.0000u    7.675p a      +      +      +      +      +      +      +      + 
  550.0000u    8.079p a      +      +      +      +      +      +      +      + 
  560.0000u    8.464p a      +      +      +      +      +      +      +      + 
  570.0000u    8.837p a      +      +      +      +      +      +      +      + 
  580.0000u    9.211p a      +      +      +      +      +      +      +      + 
  590.0000u    9.571p a      +      +      +      +      +      +      +      + 
  600.0000u    9.898p-a------+------+------+------+------+------+------+------+-
  610.0000u   10.225p a      +      +      +      +      +      +      +      + 
  620.0000u   10.552p a      +      +      +      +      +      +      +      + 
  630.0000u   10.833p a      +      +      +      +      +      +      +      + 
  640.0000u   11.104p a      +      +      +      +      +      +      +      + 
  650.0000u   11.375p a      +      +      +      +      +      +      +      + 
  660.0000u   11.567p a      +      +      +      +      +      +      +      + 
  670.0000u   11.759p a      +      +      +      +      +      +      +      + 
  680.0000u   11.951p a      +      +      +      +      +      +      +      + 
  690.0000u   12.144p a      +      +      +      +      +      +      +      + 
  700.0000u   12.297p-a------+------+------+------+------+------+------+------+-
  710.0000u   12.413p a      +      +      +      +      +      +      +      + 
  720.0000u   12.485p a      +      +      +      +      +      +      +      + 
  730.0000u   12.531p a      +      +      +      +      +      +      +      + 
  740.0000u   12.576p a      +      +      +      +      +      +      +      + 
  750.0000u   12.622p a      +      +      +      +      +      +      +      + 
  760.0000u   12.556p a      +      +      +      +      +      +      +      + 
  770.0000u   12.490p a      +      +      +      +      +      +      +      + 
  780.0000u   12.424p a      +      +      +      +      +      +      +      + 
  790.0000u   12.358p a      +      +      +      +      +      +      +      + 
  800.0000u   12.292p-a------+------+------+------+------+------+------+------+-
  810.0000u   12.141p a      +      +      +      +      +      +      +      + 
  820.0000u   11.975p a      +      +      +      +      +      +      +      + 
  830.0000u   11.766p a      +      +      +      +      +      +      +      + 
  840.0000u   11.557p a      +      +      +      +      +      +      +      + 
  850.0000u   11.348p a      +      +      +      +      +      +      +      + 
  860.0000u   11.053p a      +      +      +      +      +      +      +      + 
  870.0000u   10.758p a      +      +      +      +      +      +      +      + 
  880.0000u   10.463p a      +      +      +      +      +      +      +      + 
  890.0000u   10.168p a      +      +      +      +      +      +      +      + 
  900.0000u    9.873p-a------+------+------+------+------+------+------+------+-
  910.0000u    9.534p a      +      +      +      +      +      +      +      + 
  920.0000u    9.181p a      +      +      +      +      +      +      +      + 
  930.0000u    8.793p a      +      +      +      +      +      +      +      + 
  940.0000u    8.399p a      +      +      +      +      +      +      +      + 
  950.0000u    8.005p a      +      +      +      +      +      +      +      + 
  960.0000u    7.611p a      +      +      +      +      +      +      +      + 
  970.0000u    7.216p a      +      +      +      +      +      +      +      + 
  980.0000u    6.822p a      +      +      +      +      +      +      +      + 
  990.0000u    6.415p a      +      +      +      +      +      +      +      + 
    1.0000m    6.002p-a------+------+------+------+------+------+------+------+-
    1.0100m  128.627n a      +      +      +      +      +      +      +      + 
    1.0200m    1.438m +a     +      +      +      +      +      +      +      + 
    1.0300m    4.904m +  a   +      +      +      +      +      +      +      + 
    1.0400m    8.686m +     a+      +      +      +      +      +      +      + 
    1.0500m   12.491m +      + a    +      +      +      +      +      +      + 
    1.0600m   16.163m +      +   a  +      +      +      +      +      +      + 
    1.0700m   19.834m +      +      a      +      +      +      +      +      + 
    1.0800m   23.245m +      +      + a    +      +      +      +      +      + 
    1.0900m   26.306m +      +      +   a  +      +      +      +      +      + 
    1.1000m   29.367m-+------+------+------a------+------+------+------+------+-
    1.1100m   32.429m +      +      +      + a    +      +      +      +      + 
    1.1200m   35.490m +      +      +      +   a  +      +      +      +      + 
    1.1300m   38.552m +      +      +      +     a+      +      +      +      + 
    1.1400m   41.613m +      +      +      +      +a     +      +      +      + 
    1.1500m   44.144m +      +      +      +      +  a   +      +      +      + 
    1.1600m   46.325m +      +      +      +      +   a  +      +      +      + 
    1.1700m   48.257m +      +      +      +      +     a+      +      +      + 
    1.1800m   50.089m +      +      +      +      +      a      +      +      + 
    1.1900m   51.142m +      +      +      +      +      +a     +      +      + 
    1.2000m   52.020m-+------+------+------+------+------+a-----+------+------+-
    1.2100m   52.897m +      +      +      +      +      + a    +      +      + 
    1.2200m   53.775m +      +      +      +      +      +  a   +      +      + 
    1.2300m   54.653m +      +      +      +      +      +  a   +      +      + 
    1.2400m   55.531m +      +      +      +      +      +   a  +      +      + 
    1.2500m   55.775m +      +      +      +      +      +   a  +      +      + 
    1.2600m   55.558m +      +      +      +      +      +   a  +      +      + 
    1.2700m   55.042m +      +      +      +      +      +   a  +      +      + 
    1.2800m   54.373m +      +      +      +      +      +  a   +      +      + 
